T0EE8 000:015.682   SEGGER J-Link V7.22b Log File
T0EE8 000:015.895   DLL Compiled: Jun 17 2021 17:22:49
T0EE8 000:016.119   Logging started @ 2026-02-24 07:21
T0EE8 000:016.358 - 16.365ms
T0EE8 000:016.387 JLINK_SetWarnOutHandler(...)
T0EE8 000:016.403 - 0.020ms
T0EE8 000:016.416 JLINK_OpenEx(...)
T0EE8 000:020.905   Firmware: J-Link V11 compiled May 28 2024 15:36:02
T0EE8 000:021.673   Firmware: J-Link V11 compiled May 28 2024 15:36:02
T0EE8 000:022.069   Decompressing FW timestamp took 332 us
T0EE8 000:025.688   Hardware: V11.00
T0EE8 000:025.717   S/N: 601018327
T0EE8 000:025.732   OEM: SEGGER
T0EE8 000:025.742   Feature(s): RDI, FlashBP, FlashDL, JFlash, GDB
T0EE8 000:029.219   TELNET listener socket opened on port 19021
T0EE8 000:029.560   WEBSRV Starting webserver
T0EE8 000:029.784   WEBSRV Webserver running on local port 19080
T0EE8 000:029.804 - 13.391ms returns "O.K."
T0EE8 000:029.830 JLINK_GetEmuCaps()
T0EE8 000:029.845 - 0.020ms returns 0xB9FF7BBF
T0EE8 000:029.859 JLINK_TIF_GetAvailable(...)
T0EE8 000:030.492 - 0.650ms
T0EE8 000:030.547 JLINK_SetErrorOutHandler(...)
T0EE8 000:030.566 - 0.023ms
T0EE8 000:030.598 JLINK_ExecCommand("ProjectFile = "C:\Users\zhangch64\Desktop\EncoderFCTBoard\MDK-ARM\JLinkSettings.ini"", ...). 
T0EE8 000:047.754   Device "STM32G491CC" selected.
T0EE8 000:048.257 - 17.673ms returns 0x00
T0EE8 000:048.322 JLINK_ExecCommand("Device = STM32G491CCUx", ...). 
T0EE8 000:049.106   Device "STM32G491CC" selected.
T0EE8 000:049.967 - 1.652ms returns 0x00
T0EE8 000:050.026 JLINK_GetHardwareVersion()
T0EE8 000:050.039 - 0.017ms returns 110000
T0EE8 000:050.051 JLINK_GetDLLVersion()
T0EE8 000:050.061 - 0.014ms returns 72202
T0EE8 000:050.074 JLINK_GetOEMString(...)
T0EE8 000:050.154 JLINK_GetFirmwareString(...)
T0EE8 000:050.386 - 0.239ms
T0EE8 000:050.469 JLINK_GetDLLVersion()
T0EE8 000:050.486 - 0.022ms returns 72202
T0EE8 000:050.499 JLINK_GetCompileDateTime()
T0EE8 000:050.511 - 0.017ms
T0EE8 000:050.559 JLINK_GetFirmwareString(...)
T0EE8 000:050.574 - 0.323ms
T0EE8 000:050.930 JLINK_GetHardwareVersion()
T0EE8 000:050.943 - 0.018ms returns 110000
T0EE8 000:050.968 JLINK_GetSN()
T0EE8 000:051.150 - 0.188ms returns 601018327
T0EE8 000:051.186 JLINK_GetOEMString(...)
T0EE8 000:051.289 JLINK_TIF_Select(JLINKARM_TIF_SWD)
T0EE8 000:053.032 - 1.768ms returns 0x00
T0EE8 000:053.073 JLINK_HasError()
T0EE8 000:053.100 JLINK_SetSpeed(5000)
T0EE8 000:053.365 - 0.283ms
T0EE8 000:053.396 JLINK_GetId()
T0EE8 000:055.422   Found SW-DP with ID 0x2BA01477
T0EE8 000:101.011   Found SW-DP with ID 0x2BA01477
T0EE8 000:104.076   DPIDR: 0x2BA01477
T0EE8 000:104.120   Scanning AP map to find all available APs
T0EE8 000:104.921   AP[1]: Stopped AP scan as end of AP map has been reached
T0EE8 000:104.958   AP[0]: AHB-AP (IDR: 0x24770011)
T0EE8 000:104.975   Iterating through AP map to find AHB-AP to use
T0EE8 000:105.694   AP[0]: Core found
T0EE8 000:105.722   AP[0]: AHB-AP ROM base: 0xE00FF000
T0EE8 000:106.093   CPUID register: 0x410FC241. Implementer code: 0x41 (ARM)
T0EE8 000:106.117   Found Cortex-M4 r0p1, Little endian.
T0EE8 000:207.690   -- Max. mem block: 0x00004E40
T0EE8 000:208.157   CPU_ReadMem(4 bytes @ 0xE000EDF0)
T0EE8 000:208.572   CPU_ReadMem(4 bytes @ 0xE0002000)
T0EE8 000:209.100   FPUnit: 6 code (BP) slots and 2 literal slots
T0EE8 000:209.133   CPU_ReadMem(4 bytes @ 0xE000EDFC)
T0EE8 000:209.572   CPU_WriteMem(4 bytes @ 0xE000EDFC)
T0EE8 000:210.138   CPU_ReadMem(4 bytes @ 0xE0001000)
T0EE8 000:210.579   CPU_WriteMem(4 bytes @ 0xE0001000)
T0EE8 000:210.948   CPU_ReadMem(4 bytes @ 0xE000ED88)
T0EE8 000:211.401   CPU_WriteMem(4 bytes @ 0xE000ED88)
T0EE8 000:211.802   CPU_ReadMem(4 bytes @ 0xE000ED88)
T0EE8 000:212.177   CPU_WriteMem(4 bytes @ 0xE000ED88)
T0EE8 000:212.641   CoreSight components:
T0EE8 000:212.665   ROMTbl[0] @ E00FF000
T0EE8 000:212.676   CPU_ReadMem(64 bytes @ 0xE00FF000)
T0EE8 000:213.370   CPU_ReadMem(32 bytes @ 0xE000EFE0)
T0EE8 000:213.907   ROMTbl[0][0]: E000E000, CID: B105E00D, PID: 000BB00C SCS-M7
T0EE8 000:213.986   CPU_ReadMem(32 bytes @ 0xE0001FE0)
T0EE8 000:214.497   ROMTbl[0][1]: E0001000, CID: B105E00D, PID: 003BB002 DWT
T0EE8 000:214.517   CPU_ReadMem(32 bytes @ 0xE0002FE0)
T0EE8 000:214.976   ROMTbl[0][2]: E0002000, CID: B105E00D, PID: 002BB003 FPB
T0EE8 000:214.994   CPU_ReadMem(32 bytes @ 0xE0000FE0)
T0EE8 000:215.563   ROMTbl[0][3]: E0000000, CID: B105E00D, PID: 003BB001 ITM
T0EE8 000:215.600   CPU_ReadMem(32 bytes @ 0xE0040FE0)
T0EE8 000:215.992   ROMTbl[0][4]: E0040000, CID: B105900D, PID: 000BB9A1 TPIU
T0EE8 000:216.008   CPU_ReadMem(32 bytes @ 0xE0041FE0)
T0EE8 000:216.446   ROMTbl[0][5]: E0041000, CID: B105900D, PID: 000BB925 ETM
T0EE8 000:216.744 - 163.362ms returns 0x2BA01477
T0EE8 000:216.796 JLINK_GetDLLVersion()
T0EE8 000:216.812 - 0.020ms returns 72202
T0EE8 000:216.846 JLINK_CORE_GetFound()
T0EE8 000:216.862 - 0.020ms returns 0xE0000FF
T0EE8 000:216.895 JLINK_GetDebugInfo(0x100 = JLINKARM_ROM_TABLE_ADDR_INDEX)
T0EE8 000:216.913   Value=0xE00FF000
T0EE8 000:216.925 - 0.033ms returns 0
T0EE8 000:217.041 JLINK_GetDebugInfo(0x100 = JLINKARM_ROM_TABLE_ADDR_INDEX)
T0EE8 000:217.056   Value=0xE00FF000
T0EE8 000:217.064 - 0.026ms returns 0
T0EE8 000:217.072 JLINK_GetDebugInfo(0x101 = JLINKARM_DEBUG_INFO_ETM_ADDR_INDEX)
T0EE8 000:217.078   Value=0xE0041000
T0EE8 000:217.085 - 0.016ms returns 0
T0EE8 000:217.096 JLINK_ReadMemEx(0xE0041FD0, 0x20 Bytes, Flags = 0x02000004)
T0EE8 000:217.117   CPU_ReadMem(32 bytes @ 0xE0041FD0)
T0EE8 000:217.660   Data:  04 00 00 00 00 00 00 00 00 00 00 00 00 00 00 00 ...
T0EE8 000:217.682 - 0.591ms returns 32 (0x20)
T0EE8 000:217.696 JLINK_GetDebugInfo(0x102 = JLINKARM_DEBUG_INFO_MTB_ADDR_INDEX)
T0EE8 000:217.706   Value=0x00000000
T0EE8 000:217.719 - 0.026ms returns 0
T0EE8 000:217.728 JLINK_GetDebugInfo(0x103 = JLINKARM_DEBUG_INFO_TPIU_ADDR_INDEX)
T0EE8 000:217.736   Value=0xE0040000
T0EE8 000:217.743 - 0.018ms returns 0
T0EE8 000:217.750 JLINK_GetDebugInfo(0x104 = JLINKARM_DEBUG_INFO_ITM_ADDR_INDEX)
T0EE8 000:217.756   Value=0xE0000000
T0EE8 000:217.763 - 0.015ms returns 0
T0EE8 000:217.769 JLINK_GetDebugInfo(0x105 = JLINKARM_DEBUG_INFO_DWT_ADDR_INDEX)
T0EE8 000:217.793   Value=0xE0001000
T0EE8 000:217.812 - 0.046ms returns 0
T0EE8 000:217.838 JLINK_GetDebugInfo(0x106 = JLINKARM_DEBUG_INFO_FPB_ADDR_INDEX)
T0EE8 000:217.847   Value=0xE0002000
T0EE8 000:217.858 - 0.046ms returns 0
T0EE8 000:217.891 JLINK_GetDebugInfo(0x107 = JLINKARM_DEBUG_INFO_NVIC_ADDR_INDEX)
T0EE8 000:217.901   Value=0xE000E000
T0EE8 000:217.912 - 0.024ms returns 0
T0EE8 000:217.920 JLINK_GetDebugInfo(0x10C = JLINKARM_DEBUG_INFO_DBG_ADDR_INDEX)
T0EE8 000:217.929   Value=0xE000EDF0
T0EE8 000:217.939 - 0.021ms returns 0
T0EE8 000:217.945 JLINK_GetDebugInfo(0x01 = Unknown)
T0EE8 000:217.951   Value=0x00000001
T0EE8 000:217.958 - 0.016ms returns 0
T0EE8 000:217.965 JLINK_ReadMemU32(0xE000ED00, 0x1 Items)
T0EE8 000:217.980   CPU_ReadMem(4 bytes @ 0xE000ED00)
T0EE8 000:218.438   Data:  41 C2 0F 41
T0EE8 000:218.459   Debug reg: CPUID
T0EE8 000:218.466 - 0.504ms returns 1 (0x1)
T0EE8 000:218.476 JLINK_GetDebugInfo(0x10F = JLINKARM_DEBUG_INFO_HAS_CORTEX_M_SECURITY_EXT_INDEX)
T0EE8 000:218.483   Value=0x00000000
T0EE8 000:218.490 - 0.016ms returns 0
T0EE8 000:218.498 JLINK_HasError()
T0EE8 000:218.505 JLINK_SetResetType(JLINKARM_CM3_RESET_TYPE_NORMAL)
T0EE8 000:218.511 - 0.008ms returns JLINKARM_CM3_RESET_TYPE_NORMAL
T0EE8 000:218.517 JLINK_Reset()
T0EE8 000:218.533   CPU is running
T0EE8 000:218.543   CPU_WriteMem(4 bytes @ 0xE000EDF0)
T0EE8 000:219.041   CPU is running
T0EE8 000:219.060   CPU_WriteMem(4 bytes @ 0xE000EDFC)
T0EE8 000:219.421   Reset: Halt core after reset via DEMCR.VC_CORERESET.
T0EE8 000:219.997   Reset: Reset device via AIRCR.SYSRESETREQ.
T0EE8 000:220.023   CPU is running
T0EE8 000:220.037   CPU_WriteMem(4 bytes @ 0xE000ED0C)
T0EE8 000:275.177   CPU_ReadMem(4 bytes @ 0xE000EDF0)
T0EE8 000:275.640   CPU_ReadMem(4 bytes @ 0xE000EDF0)
T0EE8 000:276.274   CPU is running
T0EE8 000:276.301   CPU_WriteMem(4 bytes @ 0xE000EDF0)
T0EE8 000:276.828   CPU is running
T0EE8 000:276.849   CPU_WriteMem(4 bytes @ 0xE000EDFC)
T0EE8 000:283.329   CPU_ReadMem(4 bytes @ 0xE000EDF0)
T0EE8 000:286.556   CPU_WriteMem(4 bytes @ 0xE0002000)
T0EE8 000:287.310   CPU_ReadMem(4 bytes @ 0xE000EDFC)
T0EE8 000:287.801   CPU_ReadMem(4 bytes @ 0xE0001000)
T0EE8 000:288.205 - 69.700ms
T0EE8 000:288.253 JLINK_HasError()
T0EE8 000:288.271 JLINK_ReadReg(R15 (PC))
T0EE8 000:288.290 - 0.023ms returns 0x08000324
T0EE8 000:288.319 JLINK_ReadReg(XPSR)
T0EE8 000:288.334 - 0.019ms returns 0x01000000
T0EE8 000:288.349 JLINK_Halt()
T0EE8 000:288.356 - 0.011ms returns 0x00
T0EE8 000:288.453 JLINK_ReadMemU32(0xE000EDF0, 0x1 Items)
T0EE8 000:288.479   CPU_ReadMem(4 bytes @ 0xE000EDF0)
T0EE8 000:288.936   Data:  03 00 03 00
T0EE8 000:288.957   Debug reg: DHCSR
T0EE8 000:288.967 - 0.517ms returns 1 (0x1)
T0EE8 000:288.979 JLINK_WriteU32_64(0xE000EDF0, 0xA05F0003)
T0EE8 000:288.994   Debug reg: DHCSR
T0EE8 000:289.515   CPU_WriteMem(4 bytes @ 0xE000EDF0)
T0EE8 000:290.084 - 1.118ms returns 0 (0x00000000)
T0EE8 000:290.107 JLINK_WriteU32_64(0xE000EDFC, 0x01000000)
T0EE8 000:290.116   Debug reg: DEMCR
T0EE8 000:290.136   CPU_WriteMem(4 bytes @ 0xE000EDFC)
T0EE8 000:290.499 - 0.405ms returns 0 (0x00000000)
T0EE8 000:290.580 JLINK_GetHWStatus(...)
T0EE8 000:290.923 - 0.357ms returns 0
T0EE8 000:290.981 JLINK_GetNumBPUnits(Type = 0xFFFFFF00)
T0EE8 000:290.993 - 0.017ms returns 0x06
T0EE8 000:291.002 JLINK_GetNumBPUnits(Type = 0xF0)
T0EE8 000:291.008 - 0.008ms returns 0x2000
T0EE8 000:291.014 JLINK_GetNumWPUnits()
T0EE8 000:291.019 - 0.008ms returns 4
T0EE8 000:291.038 JLINK_GetSpeed()
T0EE8 000:291.044 - 0.008ms returns 5000
T0EE8 000:291.057 JLINK_ReadMemU32(0xE000E004, 0x1 Items)
T0EE8 000:291.070   CPU_ReadMem(4 bytes @ 0xE000E004)
T0EE8 000:291.405   Data:  03 00 00 00
T0EE8 000:291.420 - 0.366ms returns 1 (0x1)
T0EE8 000:291.429 JLINK_ReadMemU32(0xE000E004, 0x1 Items)
T0EE8 000:291.441   CPU_ReadMem(4 bytes @ 0xE000E004)
T0EE8 000:291.760   Data:  03 00 00 00
T0EE8 000:291.775 - 0.348ms returns 1 (0x1)
T0EE8 000:291.784 JLINK_WriteMemEx(0xE0001000, 0x0000001C Bytes, Flags = 0x02000004)
T0EE8 000:291.791   Data:  01 00 00 00 00 00 00 00 00 00 00 00 00 00 00 00 ...
T0EE8 000:291.806   CPU_WriteMem(28 bytes @ 0xE0001000)
T0EE8 000:292.187 - 0.412ms returns 0x1C
T0EE8 000:292.204 JLINK_HasError()
T0EE8 000:292.212 JLINK_ReadReg(R15 (PC))
T0EE8 000:292.220 - 0.011ms returns 0x08000324
T0EE8 000:292.227 JLINK_ReadReg(XPSR)
T0EE8 000:292.233 - 0.009ms returns 0x01000000
T0EE8 000:296.244 JLINK_ReadMemEx(0xE0001004, 0x4 Bytes, Flags = 0x02000000)
T0EE8 000:296.264   Data:  00 00 00 00
T0EE8 000:296.273   Debug reg: DWT_CYCCNT
T0EE8 000:296.280 - 0.039ms returns 4 (0x4)
T0EE8 000:443.753 JLINK_HasError()
T0EE8 000:443.786 JLINK_SetResetType(JLINKARM_CM3_RESET_TYPE_NORMAL)
T0EE8 000:443.793 - 0.009ms returns JLINKARM_CM3_RESET_TYPE_NORMAL
T0EE8 000:443.799 JLINK_Reset()
T0EE8 000:443.816   CPU_WriteMem(4 bytes @ 0xE000EDF0)
T0EE8 000:444.305   CPU_WriteMem(4 bytes @ 0xE000EDFC)
T0EE8 000:444.777   Reset: Halt core after reset via DEMCR.VC_CORERESET.
T0EE8 000:445.440   Reset: Reset device via AIRCR.SYSRESETREQ.
T0EE8 000:445.460   CPU_WriteMem(4 bytes @ 0xE000ED0C)
T0EE8 000:499.910   CPU_ReadMem(4 bytes @ 0xE000EDF0)
T0EE8 000:500.439   CPU_ReadMem(4 bytes @ 0xE000EDF0)
T0EE8 000:500.936   CPU_WriteMem(4 bytes @ 0xE000EDF0)
T0EE8 000:501.455   CPU_WriteMem(4 bytes @ 0xE000EDFC)
T0EE8 000:508.453   CPU_ReadMem(4 bytes @ 0xE000EDF0)
T0EE8 000:512.027   CPU_WriteMem(4 bytes @ 0xE0002000)
T0EE8 000:512.685   CPU_ReadMem(4 bytes @ 0xE000EDFC)
T0EE8 000:513.315   CPU_ReadMem(4 bytes @ 0xE0001000)
T0EE8 000:513.860 - 70.078ms
T0EE8 000:514.060 JLINK_HasError()
T0EE8 000:514.085 JLINK_ReadReg(R15 (PC))
T0EE8 000:514.103 - 0.024ms returns 0x08000324
T0EE8 000:514.117 JLINK_ReadReg(XPSR)
T0EE8 000:514.129 - 0.017ms returns 0x01000000
T0EE8 000:514.271 JLINK_ReadMemEx(0x08000324, 0x3C Bytes, Flags = 0x02000000)
T0EE8 000:514.297   CPU_ReadMem(128 bytes @ 0x08000300)
T0EE8 000:515.288    -- Updating C cache (128 bytes @ 0x08000300)
T0EE8 000:515.315    -- Read from C cache (60 bytes @ 0x08000324)
T0EE8 000:515.334   Data:  09 48 80 47 09 48 00 47 FE E7 FE E7 FE E7 FE E7 ...
T0EE8 000:515.349 - 1.083ms returns 60 (0x3C)
T0EE8 000:515.365 JLINK_ReadMemEx(0x08000324, 0x2 Bytes, Flags = 0x02000000)
T0EE8 000:515.381    -- Read from C cache (2 bytes @ 0x08000324)
T0EE8 000:515.397   Data:  09 48
T0EE8 000:515.411 - 0.051ms returns 2 (0x2)
T0EE8 000:515.585 JLINK_ReadMemEx(0x08000326, 0x2 Bytes, Flags = 0x02000000)
T0EE8 000:515.607    -- Read from C cache (2 bytes @ 0x08000326)
T0EE8 000:515.622   Data:  80 47
T0EE8 000:515.637 - 0.058ms returns 2 (0x2)
T0EE8 000:515.681 JLINK_ReadMemEx(0x08000326, 0x2 Bytes, Flags = 0x02000000)
T0EE8 000:515.695    -- Read from C cache (2 bytes @ 0x08000326)
T0EE8 000:515.710   Data:  80 47
T0EE8 000:515.724 - 0.048ms returns 2 (0x2)
T0EE8 000:515.737 JLINK_ReadMemEx(0x08000328, 0x3C Bytes, Flags = 0x02000000)
T0EE8 000:515.749    -- Read from C cache (60 bytes @ 0x08000328)
T0EE8 000:515.766   Data:  09 48 00 47 FE E7 FE E7 FE E7 FE E7 FE E7 FE E7 ...
T0EE8 000:515.780 - 0.048ms returns 60 (0x3C)
T0EE8 000:515.793 JLINK_ReadMemEx(0x08000328, 0x2 Bytes, Flags = 0x02000000)
T0EE8 000:515.805    -- Read from C cache (2 bytes @ 0x08000328)
T0EE8 000:515.820   Data:  09 48
T0EE8 000:515.835 - 0.047ms returns 2 (0x2)
T0EE8 000:515.859 JLINK_ReadMemEx(0x08000328, 0x3C Bytes, Flags = 0x02000000)
T0EE8 000:515.873    -- Read from C cache (60 bytes @ 0x08000328)
T0EE8 000:515.889   Data:  09 48 00 47 FE E7 FE E7 FE E7 FE E7 FE E7 FE E7 ...
T0EE8 000:515.904 - 0.049ms returns 60 (0x3C)
T0EE8 000:515.916 JLINK_ReadMemEx(0x08000328, 0x2 Bytes, Flags = 0x02000000)
T0EE8 000:515.928    -- Read from C cache (2 bytes @ 0x08000328)
T0EE8 000:515.943   Data:  09 48
T0EE8 000:515.957 - 0.046ms returns 2 (0x2)
T0EE8 000:515.970 JLINK_ReadMemEx(0x0800032A, 0x2 Bytes, Flags = 0x02000000)
T0EE8 000:515.982    -- Read from C cache (2 bytes @ 0x0800032A)
T0EE8 000:515.997   Data:  00 47
T0EE8 000:516.012 - 0.047ms returns 2 (0x2)
T0EE8 000:516.037 JLINK_ReadMemEx(0x0800032A, 0x2 Bytes, Flags = 0x02000000)
T0EE8 000:516.087    -- Read from C cache (2 bytes @ 0x0800032A)
T0EE8 000:516.103   Data:  00 47
T0EE8 000:516.118 - 0.085ms returns 2 (0x2)
T0EE8 000:516.133 JLINK_ReadMemEx(0x0800032C, 0x3C Bytes, Flags = 0x02000000)
T0EE8 000:516.145    -- Read from C cache (60 bytes @ 0x0800032C)
T0EE8 000:516.247   Data:  FE E7 FE E7 FE E7 FE E7 FE E7 FE E7 FE E7 FE E7 ...
T0EE8 000:516.272 - 0.143ms returns 60 (0x3C)
T0EE8 000:516.286 JLINK_ReadMemEx(0x0800032C, 0x2 Bytes, Flags = 0x02000000)
T0EE8 000:516.300    -- Read from C cache (2 bytes @ 0x0800032C)
T0EE8 000:516.316   Data:  FE E7
T0EE8 000:516.331 - 0.050ms returns 2 (0x2)
T0EE8 000:516.361 JLINK_ReadMemEx(0x0800032C, 0x3C Bytes, Flags = 0x02000000)
T0EE8 000:516.375    -- Read from C cache (60 bytes @ 0x0800032C)
T0EE8 000:516.393   Data:  FE E7 FE E7 FE E7 FE E7 FE E7 FE E7 FE E7 FE E7 ...
T0EE8 000:516.408 - 0.051ms returns 60 (0x3C)
T0EE8 000:516.420 JLINK_ReadMemEx(0x0800032C, 0x2 Bytes, Flags = 0x02000000)
T0EE8 000:516.432    -- Read from C cache (2 bytes @ 0x0800032C)
T0EE8 000:516.447   Data:  FE E7
T0EE8 000:516.462 - 0.047ms returns 2 (0x2)
T0EE8 000:516.474 JLINK_ReadMemEx(0x0800032E, 0x2 Bytes, Flags = 0x02000000)
T0EE8 000:516.486    -- Read from C cache (2 bytes @ 0x0800032E)
T0EE8 000:516.501   Data:  FE E7
T0EE8 000:516.516 - 0.047ms returns 2 (0x2)
T0EE8 000:779.605 JLINK_ReadMemEx(0x40020000, 0x4 Bytes, Flags = 0x02000004)
T0EE8 000:779.650   CPU_ReadMem(4 bytes @ 0x40020000)
T0EE8 000:780.127   Data:  00 00 00 00
T0EE8 000:780.155 - 0.554ms returns 4 (0x4)
T0EE8 000:780.171 JLINK_ReadMemEx(0x40020008, 0x4 Bytes, Flags = 0x02000004)
T0EE8 000:780.183   CPU_ReadMem(4 bytes @ 0x40020008)
T0EE8 000:780.576   Data:  00 00 00 00
T0EE8 000:780.608 - 0.439ms returns 4 (0x4)
T0EE8 000:780.620 JLINK_ReadMemEx(0x4002000C, 0x4 Bytes, Flags = 0x02000004)
T0EE8 000:780.681   CPU_ReadMem(4 bytes @ 0x4002000C)
T0EE8 000:781.121   Data:  00 00 00 00
T0EE8 000:781.144 - 0.528ms returns 4 (0x4)
T0EE8 000:781.161 JLINK_ReadMemEx(0x40020010, 0x4 Bytes, Flags = 0x02000004)
T0EE8 000:781.178   CPU_ReadMem(4 bytes @ 0x40020010)
T0EE8 000:781.633   Data:  00 00 00 00
T0EE8 000:781.652 - 0.493ms returns 4 (0x4)
T0EE8 000:781.665 JLINK_ReadMemEx(0x40020014, 0x4 Bytes, Flags = 0x02000004)
T0EE8 000:781.677   CPU_ReadMem(4 bytes @ 0x40020014)
T0EE8 000:782.135   Data:  00 00 00 00
T0EE8 000:782.159 - 0.499ms returns 4 (0x4)
T0EE8 000:782.178 JLINK_ReadMemEx(0x4002001C, 0x4 Bytes, Flags = 0x02000004)
T0EE8 000:782.198   CPU_ReadMem(4 bytes @ 0x4002001C)
T0EE8 000:782.614   Data:  00 00 00 00
T0EE8 000:782.633 - 0.458ms returns 4 (0x4)
T0EE8 000:782.646 JLINK_ReadMemEx(0x40020020, 0x4 Bytes, Flags = 0x02000004)
T0EE8 000:782.660   CPU_ReadMem(4 bytes @ 0x40020020)
T0EE8 000:783.012   Data:  00 00 00 00
T0EE8 000:783.032 - 0.388ms returns 4 (0x4)
T0EE8 000:783.045 JLINK_ReadMemEx(0x40020024, 0x4 Bytes, Flags = 0x02000004)
T0EE8 000:783.058   CPU_ReadMem(4 bytes @ 0x40020024)
T0EE8 000:783.448   Data:  00 00 00 00
T0EE8 000:783.495 - 0.456ms returns 4 (0x4)
T0EE8 000:783.512 JLINK_ReadMemEx(0x40020028, 0x4 Bytes, Flags = 0x02000004)
T0EE8 000:783.541   CPU_ReadMem(4 bytes @ 0x40020028)
T0EE8 000:783.907   Data:  00 00 00 00
T0EE8 000:783.927 - 0.418ms returns 4 (0x4)
T0EE8 000:783.941 JLINK_ReadMemEx(0x40020030, 0x4 Bytes, Flags = 0x02000004)
T0EE8 000:783.955   CPU_ReadMem(4 bytes @ 0x40020030)
T0EE8 000:784.340   Data:  00 00 00 00
T0EE8 000:784.360 - 0.422ms returns 4 (0x4)
T0EE8 000:784.374 JLINK_ReadMemEx(0x40020034, 0x4 Bytes, Flags = 0x02000004)
T0EE8 000:784.388   CPU_ReadMem(4 bytes @ 0x40020034)
T0EE8 000:785.160   Data:  00 00 00 00
T0EE8 000:785.195 - 0.825ms returns 4 (0x4)
T0EE8 000:785.218 JLINK_ReadMemEx(0x40020038, 0x4 Bytes, Flags = 0x02000004)
T0EE8 000:785.241   CPU_ReadMem(4 bytes @ 0x40020038)
T0EE8 000:785.727   Data:  00 00 00 00
T0EE8 000:785.757 - 0.543ms returns 4 (0x4)
T0EE8 000:785.780 JLINK_ReadMemEx(0x4002003C, 0x4 Bytes, Flags = 0x02000004)
T0EE8 000:785.802   CPU_ReadMem(4 bytes @ 0x4002003C)
T0EE8 000:786.433   Data:  00 00 00 00
T0EE8 000:786.478 - 0.702ms returns 4 (0x4)
T0EE8 000:786.511 JLINK_ReadMemEx(0x40020044, 0x4 Bytes, Flags = 0x02000004)
T0EE8 000:786.542   CPU_ReadMem(4 bytes @ 0x40020044)
T0EE8 000:787.096   Data:  00 00 00 00
T0EE8 000:787.124 - 0.616ms returns 4 (0x4)
T0EE8 000:787.142 JLINK_ReadMemEx(0x40020048, 0x4 Bytes, Flags = 0x02000004)
T0EE8 000:787.159   CPU_ReadMem(4 bytes @ 0x40020048)
T0EE8 000:787.724   Data:  00 00 00 00
T0EE8 000:787.751 - 0.613ms returns 4 (0x4)
T0EE8 000:787.769 JLINK_ReadMemEx(0x4002004C, 0x4 Bytes, Flags = 0x02000004)
T0EE8 000:787.788   CPU_ReadMem(4 bytes @ 0x4002004C)
T0EE8 000:788.240   Data:  00 00 00 00
T0EE8 000:788.270 - 0.506ms returns 4 (0x4)
T0EE8 000:788.290 JLINK_ReadMemEx(0x40020050, 0x4 Bytes, Flags = 0x02000004)
T0EE8 000:788.305   CPU_ReadMem(4 bytes @ 0x40020050)
T0EE8 000:788.876   Data:  00 00 00 00
T0EE8 000:788.901 - 0.614ms returns 4 (0x4)
T0EE8 000:788.916 JLINK_ReadMemEx(0x40020058, 0x4 Bytes, Flags = 0x02000004)
T0EE8 000:788.931   CPU_ReadMem(4 bytes @ 0x40020058)
T0EE8 000:789.337   Data:  00 00 00 00
T0EE8 000:789.360 - 0.446ms returns 4 (0x4)
T0EE8 000:789.375 JLINK_ReadMemEx(0x4002005C, 0x4 Bytes, Flags = 0x02000004)
T0EE8 000:789.389   CPU_ReadMem(4 bytes @ 0x4002005C)
T0EE8 000:789.863   Data:  00 00 00 00
T0EE8 000:789.885 - 0.512ms returns 4 (0x4)
T0EE8 000:789.899 JLINK_ReadMemEx(0x40020060, 0x4 Bytes, Flags = 0x02000004)
T0EE8 000:789.912   CPU_ReadMem(4 bytes @ 0x40020060)
T0EE8 000:790.292   Data:  00 00 00 00
T0EE8 000:790.316 - 0.421ms returns 4 (0x4)
T0EE8 000:790.333 JLINK_ReadMemEx(0x40020064, 0x4 Bytes, Flags = 0x02000004)
T0EE8 000:790.350   CPU_ReadMem(4 bytes @ 0x40020064)
T0EE8 000:790.713   Data:  00 00 00 00
T0EE8 000:790.732 - 0.402ms returns 4 (0x4)
T0EE8 000:790.750 JLINK_ReadMemEx(0x4002006C, 0x4 Bytes, Flags = 0x02000004)
T0EE8 000:790.768   CPU_ReadMem(4 bytes @ 0x4002006C)
T0EE8 000:791.448   Data:  00 00 00 00
T0EE8 000:791.468 - 0.721ms returns 4 (0x4)
T0EE8 000:791.485 JLINK_ReadMemEx(0x40020070, 0x4 Bytes, Flags = 0x02000004)
T0EE8 000:791.500   CPU_ReadMem(4 bytes @ 0x40020070)
T0EE8 000:791.815   Data:  00 00 00 00
T0EE8 000:791.837 - 0.354ms returns 4 (0x4)
T0EE8 000:791.851 JLINK_ReadMemEx(0x40020074, 0x4 Bytes, Flags = 0x02000004)
T0EE8 000:791.865   CPU_ReadMem(4 bytes @ 0x40020074)
T0EE8 000:792.346   Data:  00 00 00 00
T0EE8 000:792.364 - 0.516ms returns 4 (0x4)
T0EE8 000:792.377 JLINK_ReadMemEx(0x40020078, 0x4 Bytes, Flags = 0x02000004)
T0EE8 000:792.390   CPU_ReadMem(4 bytes @ 0x40020078)
T0EE8 000:792.753   Data:  00 00 00 00
T0EE8 000:792.772 - 0.398ms returns 4 (0x4)
T0EE8 000:792.786 JLINK_ReadMemEx(0x40020080, 0x4 Bytes, Flags = 0x02000004)
T0EE8 000:792.799   CPU_ReadMem(4 bytes @ 0x40020080)
T0EE8 000:793.187   Data:  00 00 00 00
T0EE8 000:793.217 - 0.436ms returns 4 (0x4)
T0EE8 000:793.237 JLINK_ReadMemEx(0x40020084, 0x4 Bytes, Flags = 0x02000004)
T0EE8 000:793.256   CPU_ReadMem(4 bytes @ 0x40020084)
T0EE8 000:793.680   Data:  00 00 00 00
T0EE8 000:793.701 - 0.467ms returns 4 (0x4)
T0EE8 000:793.716 JLINK_ReadMemEx(0x40020088, 0x4 Bytes, Flags = 0x02000004)
T0EE8 000:793.730   CPU_ReadMem(4 bytes @ 0x40020088)
T0EE8 000:794.101   Data:  00 00 00 00
T0EE8 000:794.122 - 0.410ms returns 4 (0x4)
T0EE8 000:794.137 JLINK_ReadMemEx(0x4002008C, 0x4 Bytes, Flags = 0x02000004)
T0EE8 000:794.151   CPU_ReadMem(4 bytes @ 0x4002008C)
T0EE8 000:794.502   Data:  00 00 00 00
T0EE8 000:794.520 - 0.386ms returns 4 (0x4)
T0EE8 000:794.534 JLINK_ReadMemEx(0x40020094, 0x4 Bytes, Flags = 0x02000004)
T0EE8 000:794.547   CPU_ReadMem(4 bytes @ 0x40020094)
T0EE8 000:795.216   Data:  00 00 00 00
T0EE8 000:795.242 - 0.713ms returns 4 (0x4)
T0EE8 000:795.291 JLINK_ReadMemEx(0x40020098, 0x4 Bytes, Flags = 0x02000004)
T0EE8 000:795.321   CPU_ReadMem(4 bytes @ 0x40020098)
T0EE8 000:795.727   Data:  00 00 00 00
T0EE8 000:795.745 - 0.457ms returns 4 (0x4)
T0EE8 000:795.780 JLINK_ReadMemEx(0x4002009C, 0x4 Bytes, Flags = 0x02000004)
T0EE8 000:795.798   CPU_ReadMem(4 bytes @ 0x4002009C)
T0EE8 000:796.395   Data:  00 00 00 00
T0EE8 000:796.420 - 0.644ms returns 4 (0x4)
T0EE8 000:796.456 JLINK_ReadMemEx(0x400200A0, 0x4 Bytes, Flags = 0x02000004)
T0EE8 000:796.477   CPU_ReadMem(4 bytes @ 0x400200A0)
T0EE8 000:796.829   Data:  00 00 00 00
T0EE8 000:796.850 - 0.396ms returns 4 (0x4)
T0EE8 000:872.158 JLINK_ReadMemEx(0x40013800, 0x14 Bytes, Flags = 0x02000004)
T0EE8 000:872.203   CPU_ReadMem(20 bytes @ 0x40013800)
T0EE8 000:872.834   Data:  00 00 00 00 00 00 00 00 00 00 00 00 00 00 00 00 ...
T0EE8 000:872.855 - 0.700ms returns 20 (0x14)
T0EE8 000:872.891 JLINK_ReadMemEx(0x40013814, 0x4 Bytes, Flags = 0x02000004)
T0EE8 000:872.909   CPU_ReadMem(4 bytes @ 0x40013814)
T0EE8 000:873.406   Data:  00 00 00 00
T0EE8 000:873.433 - 0.546ms returns 4 (0x4)
T0EE8 000:873.476 JLINK_ReadMemEx(0x4001381C, 0x4 Bytes, Flags = 0x02000004)
T0EE8 000:873.501   CPU_ReadMem(4 bytes @ 0x4001381C)
T0EE8 000:873.921   Data:  C0 00 00 00
T0EE8 000:873.943 - 0.471ms returns 4 (0x4)
T0EE8 000:873.981 JLINK_ReadMemEx(0x40013824, 0x8 Bytes, Flags = 0x02000004)
T0EE8 000:874.006   CPU_ReadMem(8 bytes @ 0x40013824)
T0EE8 000:874.461   Data:  00 00 00 00 00 00 00 00
T0EE8 000:874.483 - 0.506ms returns 8 (0x8)
T0EE8 000:874.523 JLINK_ReadMemEx(0x4001382C, 0x4 Bytes, Flags = 0x02000004)
T0EE8 000:874.547   CPU_ReadMem(4 bytes @ 0x4001382C)
T0EE8 000:874.983   Data:  00 00 00 00
T0EE8 000:875.007 - 0.489ms returns 4 (0x4)
T0EE8 000:951.690 JLINK_ReadMemEx(0x40004800, 0x14 Bytes, Flags = 0x02000004)
T0EE8 000:951.874   CPU_ReadMem(20 bytes @ 0x40004800)
T0EE8 000:952.688   Data:  00 00 00 00 00 00 00 00 00 00 00 00 00 00 00 00 ...
T0EE8 000:952.721 - 1.037ms returns 20 (0x14)
T0EE8 000:952.863 JLINK_ReadMemEx(0x40004814, 0x4 Bytes, Flags = 0x02000004)
T0EE8 000:952.903   CPU_ReadMem(4 bytes @ 0x40004814)
T0EE8 000:953.437   Data:  00 00 00 00
T0EE8 000:953.465 - 0.606ms returns 4 (0x4)
T0EE8 000:953.484 JLINK_ReadMemEx(0x4000481C, 0x4 Bytes, Flags = 0x02000004)
T0EE8 000:953.500   CPU_ReadMem(4 bytes @ 0x4000481C)
T0EE8 000:954.232   Data:  C0 00 00 00
T0EE8 000:954.263 - 0.783ms returns 4 (0x4)
T0EE8 000:954.309 JLINK_ReadMemEx(0x40004824, 0x8 Bytes, Flags = 0x02000004)
T0EE8 000:954.338   CPU_ReadMem(8 bytes @ 0x40004824)
T0EE8 000:954.824   Data:  00 00 00 00 00 00 00 00
T0EE8 000:954.846 - 0.541ms returns 8 (0x8)
T0EE8 000:954.863 JLINK_ReadMemEx(0x4000482C, 0x4 Bytes, Flags = 0x02000004)
T0EE8 000:954.878   CPU_ReadMem(4 bytes @ 0x4000482C)
T0EE8 000:955.496   Data:  00 00 00 00
T0EE8 000:955.516 - 0.656ms returns 4 (0x4)
T0EE8 004:050.690 JLINK_ReadMemEx(0x08000324, 0x3C Bytes, Flags = 0x02000000)
T0EE8 004:050.759    -- Read from C cache (60 bytes @ 0x08000324)
T0EE8 004:050.775   Data:  09 48 80 47 09 48 00 47 FE E7 FE E7 FE E7 FE E7 ...
T0EE8 004:050.786 - 0.100ms returns 60 (0x3C)
T0EE8 004:050.798 JLINK_ReadMemEx(0x08000324, 0x2 Bytes, Flags = 0x02000000)
T0EE8 004:050.808    -- Read from C cache (2 bytes @ 0x08000324)
T0EE8 004:050.820   Data:  09 48
T0EE8 004:050.832 - 0.037ms returns 2 (0x2)
T0EE8 004:050.843 JLINK_ReadMemEx(0x08000326, 0x2 Bytes, Flags = 0x02000000)
T0EE8 004:050.853    -- Read from C cache (2 bytes @ 0x08000326)
T0EE8 004:050.864   Data:  80 47
T0EE8 004:050.875 - 0.036ms returns 2 (0x2)
T0EE8 004:050.920 JLINK_ReadMemEx(0x08000326, 0x2 Bytes, Flags = 0x02000000)
T0EE8 004:050.930    -- Read from C cache (2 bytes @ 0x08000326)
T0EE8 004:050.942   Data:  80 47
T0EE8 004:050.954 - 0.037ms returns 2 (0x2)
T0EE8 004:050.963 JLINK_ReadMemEx(0x08000328, 0x3C Bytes, Flags = 0x02000000)
T0EE8 004:050.992    -- Read from C cache (60 bytes @ 0x08000328)
T0EE8 004:051.010   Data:  09 48 00 47 FE E7 FE E7 FE E7 FE E7 FE E7 FE E7 ...
T0EE8 004:051.021 - 0.061ms returns 60 (0x3C)
T0EE8 004:051.032 JLINK_ReadMemEx(0x08000328, 0x2 Bytes, Flags = 0x02000000)
T0EE8 004:051.041    -- Read from C cache (2 bytes @ 0x08000328)
T0EE8 004:051.053   Data:  09 48
T0EE8 004:051.084 - 0.075ms returns 2 (0x2)
T0EE8 004:051.142 JLINK_ReadMemEx(0x08000328, 0x3C Bytes, Flags = 0x02000000)
T0EE8 004:051.153    -- Read from C cache (60 bytes @ 0x08000328)
T0EE8 004:051.166   Data:  09 48 00 47 FE E7 FE E7 FE E7 FE E7 FE E7 FE E7 ...
T0EE8 004:051.177 - 0.060ms returns 60 (0x3C)
T0EE8 004:051.212 JLINK_ReadMemEx(0x08000328, 0x2 Bytes, Flags = 0x02000000)
T0EE8 004:051.239    -- Read from C cache (2 bytes @ 0x08000328)
T0EE8 004:051.252   Data:  09 48
T0EE8 004:051.263 - 0.055ms returns 2 (0x2)
T0EE8 004:051.274 JLINK_ReadMemEx(0x0800032A, 0x2 Bytes, Flags = 0x02000000)
T0EE8 004:051.284    -- Read from C cache (2 bytes @ 0x0800032A)
T0EE8 004:051.296   Data:  00 47
T0EE8 004:051.307 - 0.036ms returns 2 (0x2)
T0EE8 004:051.331 JLINK_ReadMemEx(0x0800032A, 0x2 Bytes, Flags = 0x02000000)
T0EE8 004:051.341    -- Read from C cache (2 bytes @ 0x0800032A)
T0EE8 004:051.352   Data:  00 47
T0EE8 004:051.364 - 0.037ms returns 2 (0x2)
T0EE8 004:051.373 JLINK_ReadMemEx(0x0800032C, 0x3C Bytes, Flags = 0x02000000)
T0EE8 004:051.383    -- Read from C cache (60 bytes @ 0x0800032C)
T0EE8 004:051.396   Data:  FE E7 FE E7 FE E7 FE E7 FE E7 FE E7 FE E7 FE E7 ...
T0EE8 004:051.407 - 0.037ms returns 60 (0x3C)
T0EE8 004:051.416 JLINK_ReadMemEx(0x0800032C, 0x2 Bytes, Flags = 0x02000000)
T0EE8 004:051.425    -- Read from C cache (2 bytes @ 0x0800032C)
T0EE8 004:051.437   Data:  FE E7
T0EE8 004:051.448 - 0.035ms returns 2 (0x2)
T0EE8 004:051.465 JLINK_ReadMemEx(0x0800032C, 0x3C Bytes, Flags = 0x02000000)
T0EE8 004:051.476    -- Read from C cache (60 bytes @ 0x0800032C)
T0EE8 004:051.489   Data:  FE E7 FE E7 FE E7 FE E7 FE E7 FE E7 FE E7 FE E7 ...
T0EE8 004:051.500 - 0.039ms returns 60 (0x3C)
T0EE8 004:051.510 JLINK_ReadMemEx(0x0800032C, 0x2 Bytes, Flags = 0x02000000)
T0EE8 004:051.519    -- Read from C cache (2 bytes @ 0x0800032C)
T0EE8 004:051.555   Data:  FE E7
T0EE8 004:051.568 - 0.062ms returns 2 (0x2)
T0EE8 004:051.578 JLINK_ReadMemEx(0x0800032E, 0x2 Bytes, Flags = 0x02000000)
T0EE8 004:051.588    -- Read from C cache (2 bytes @ 0x0800032E)
T0EE8 004:051.601   Data:  FE E7
T0EE8 004:051.613 - 0.039ms returns 2 (0x2)
T0EE8 004:051.637 JLINK_ReadMemEx(0x0800032E, 0x2 Bytes, Flags = 0x02000000)
T0EE8 004:051.647    -- Read from C cache (2 bytes @ 0x0800032E)
T0EE8 004:051.660   Data:  FE E7
T0EE8 004:051.671 - 0.039ms returns 2 (0x2)
T0EE8 004:051.682 JLINK_ReadMemEx(0x08000330, 0x3C Bytes, Flags = 0x02000000)
T0EE8 004:051.692    -- Read from C cache (60 bytes @ 0x08000330)
T0EE8 004:051.705   Data:  FE E7 FE E7 FE E7 FE E7 FE E7 FE E7 FE E7 FE E7 ...
T0EE8 004:051.717 - 0.039ms returns 60 (0x3C)
T0EE8 004:051.727 JLINK_ReadMemEx(0x08000330, 0x2 Bytes, Flags = 0x02000000)
T0EE8 004:051.737    -- Read from C cache (2 bytes @ 0x08000330)
T0EE8 004:051.750   Data:  FE E7
T0EE8 004:051.761 - 0.038ms returns 2 (0x2)
T0EE8 004:051.786 JLINK_ReadMemEx(0x08000330, 0x3C Bytes, Flags = 0x02000000)
T0EE8 004:051.798    -- Read from C cache (60 bytes @ 0x08000330)
T0EE8 004:051.811   Data:  FE E7 FE E7 FE E7 FE E7 FE E7 FE E7 FE E7 FE E7 ...
T0EE8 004:051.822 - 0.040ms returns 60 (0x3C)
T0EE8 004:051.832 JLINK_ReadMemEx(0x08000330, 0x2 Bytes, Flags = 0x02000000)
T0EE8 004:051.842    -- Read from C cache (2 bytes @ 0x08000330)
T0EE8 004:051.854   Data:  FE E7
T0EE8 004:051.866 - 0.037ms returns 2 (0x2)
T0EE8 004:051.875 JLINK_ReadMemEx(0x08000332, 0x2 Bytes, Flags = 0x02000000)
T0EE8 004:051.886    -- Read from C cache (2 bytes @ 0x08000332)
T0EE8 004:051.898   Data:  FE E7
T0EE8 004:051.910 - 0.038ms returns 2 (0x2)
T0EE8 005:006.418 JLINK_HasError()
T0EE8 005:006.461 JLINK_ReadReg(R0)
T0EE8 005:007.116 - 0.676ms returns 0x00000000
T0EE8 005:007.152 JLINK_ReadReg(R1)
T0EE8 005:007.165 - 0.019ms returns 0x00000000
T0EE8 005:007.178 JLINK_ReadReg(R2)
T0EE8 005:007.189 - 0.016ms returns 0x00000000
T0EE8 005:007.201 JLINK_ReadReg(R3)
T0EE8 005:007.212 - 0.016ms returns 0x00000000
T0EE8 005:007.224 JLINK_ReadReg(R4)
T0EE8 005:007.235 - 0.015ms returns 0x00000000
T0EE8 005:007.246 JLINK_ReadReg(R5)
T0EE8 005:007.257 - 0.016ms returns 0x00000000
T0EE8 005:007.270 JLINK_ReadReg(R6)
T0EE8 005:007.281 - 0.016ms returns 0x00000000
T0EE8 005:007.293 JLINK_ReadReg(R7)
T0EE8 005:007.304 - 0.015ms returns 0x00000000
T0EE8 005:007.316 JLINK_ReadReg(R8)
T0EE8 005:007.337 - 0.027ms returns 0x00000000
T0EE8 005:007.349 JLINK_ReadReg(R9)
T0EE8 005:007.360 - 0.015ms returns 0x00000000
T0EE8 005:007.372 JLINK_ReadReg(R10)
T0EE8 005:007.382 - 0.015ms returns 0x00000000
T0EE8 005:007.394 JLINK_ReadReg(R11)
T0EE8 005:007.405 - 0.015ms returns 0x00000000
T0EE8 005:007.417 JLINK_ReadReg(R12)
T0EE8 005:007.428 - 0.016ms returns 0x00000000
T0EE8 005:007.440 JLINK_ReadReg(R13 (SP))
T0EE8 005:007.452 - 0.017ms returns 0x20001010
T0EE8 005:007.464 JLINK_ReadReg(R14)
T0EE8 005:007.475 - 0.016ms returns 0xFFFFFFFF
T0EE8 005:007.488 JLINK_ReadReg(R15 (PC))
T0EE8 005:007.499 - 0.017ms returns 0x08000324
T0EE8 005:007.512 JLINK_ReadReg(XPSR)
T0EE8 005:007.523 - 0.017ms returns 0x01000000
T0EE8 005:007.536 JLINK_ReadReg(MSP)
T0EE8 005:007.546 - 0.133ms returns 0x20001010
T0EE8 005:007.680 JLINK_ReadReg(PSP)
T0EE8 005:007.695 - 0.019ms returns 0x00000000
T0EE8 005:007.706 JLINK_ReadReg(CFBP)
T0EE8 005:007.718 - 0.016ms returns 0x00000000
T0EE8 005:007.730 JLINK_ReadReg(FPSCR)
T0EE8 005:010.867 - 3.155ms returns 0x00000000
T0EE8 005:010.899 JLINK_ReadReg(FPS0)
T0EE8 005:010.915 - 0.021ms returns 0x00000000
T0EE8 005:010.929 JLINK_ReadReg(FPS1)
T0EE8 005:010.941 - 0.017ms returns 0x00000000
T0EE8 005:010.954 JLINK_ReadReg(FPS2)
T0EE8 005:010.965 - 0.017ms returns 0x00000000
T0EE8 005:010.978 JLINK_ReadReg(FPS3)
T0EE8 005:010.990 - 0.017ms returns 0x00000000
T0EE8 005:011.002 JLINK_ReadReg(FPS4)
T0EE8 005:011.014 - 0.017ms returns 0x00000000
T0EE8 005:011.027 JLINK_ReadReg(FPS5)
T0EE8 005:011.039 - 0.092ms returns 0x00000000
T0EE8 005:011.134 JLINK_ReadReg(FPS6)
T0EE8 005:011.169 - 0.048ms returns 0x00000000
T0EE8 005:011.194 JLINK_ReadReg(FPS7)
T0EE8 005:011.208 - 0.018ms returns 0x00000000
T0EE8 005:011.219 JLINK_ReadReg(FPS8)
T0EE8 005:011.229 - 0.041ms returns 0x00000000
T0EE8 005:011.273 JLINK_ReadReg(FPS9)
T0EE8 005:011.286 - 0.019ms returns 0x00000000
T0EE8 005:011.299 JLINK_ReadReg(FPS10)
T0EE8 005:011.310 - 0.015ms returns 0x00000000
T0EE8 005:011.323 JLINK_ReadReg(FPS11)
T0EE8 005:011.333 - 0.016ms returns 0x00000000
T0EE8 005:011.475 JLINK_ReadReg(FPS12)
T0EE8 005:011.487 - 0.014ms returns 0x00000000
T0EE8 005:011.494 JLINK_ReadReg(FPS13)
T0EE8 005:011.501 - 0.010ms returns 0x00000000
T0EE8 005:011.509 JLINK_ReadReg(FPS14)
T0EE8 005:011.516 - 0.010ms returns 0x00000000
T0EE8 005:011.523 JLINK_ReadReg(FPS15)
T0EE8 005:011.530 - 0.009ms returns 0x00000000
T0EE8 005:011.537 JLINK_ReadReg(FPS16)
T0EE8 005:011.544 - 0.009ms returns 0x00000000
T0EE8 005:011.552 JLINK_ReadReg(FPS17)
T0EE8 005:011.558 - 0.009ms returns 0x00000000
T0EE8 005:011.566 JLINK_ReadReg(FPS18)
T0EE8 005:011.572 - 0.009ms returns 0x00000000
T0EE8 005:011.580 JLINK_ReadReg(FPS19)
T0EE8 005:011.586 - 0.009ms returns 0x00000000
T0EE8 005:011.594 JLINK_ReadReg(FPS20)
T0EE8 005:011.601 - 0.009ms returns 0x00000000
T0EE8 005:011.608 JLINK_ReadReg(FPS21)
T0EE8 005:011.615 - 0.009ms returns 0x00000000
T0EE8 005:011.623 JLINK_ReadReg(FPS22)
T0EE8 005:011.629 - 0.009ms returns 0x00000000
T0EE8 005:011.637 JLINK_ReadReg(FPS23)
T0EE8 005:011.643 - 0.009ms returns 0x00000000
T0EE8 005:011.651 JLINK_ReadReg(FPS24)
T0EE8 005:011.657 - 0.009ms returns 0x00000000
T0EE8 005:011.665 JLINK_ReadReg(FPS25)
T0EE8 005:011.671 - 0.009ms returns 0x00000000
T0EE8 005:011.679 JLINK_ReadReg(FPS26)
T0EE8 005:011.685 - 0.009ms returns 0x00000000
T0EE8 005:011.693 JLINK_ReadReg(FPS27)
T0EE8 005:011.699 - 0.009ms returns 0x00000000
T0EE8 005:011.707 JLINK_ReadReg(FPS28)
T0EE8 005:011.714 - 0.010ms returns 0x00000000
T0EE8 005:011.721 JLINK_ReadReg(FPS29)
T0EE8 005:011.728 - 0.009ms returns 0x00000000
T0EE8 005:011.736 JLINK_ReadReg(FPS30)
T0EE8 005:011.742 - 0.009ms returns 0x00000000
T0EE8 005:011.750 JLINK_ReadReg(FPS31)
T0EE8 005:011.756 - 0.009ms returns 0x00000000
T0EE8 005:038.537 JLINK_ReadMemEx(0x20000000, 0x4 Bytes, Flags = 0x02000000)
T0EE8 005:038.600   CPU_ReadMem(64 bytes @ 0x20000000)
T0EE8 005:039.334    -- Updating C cache (64 bytes @ 0x20000000)
T0EE8 005:039.373    -- Read from C cache (4 bytes @ 0x20000000)
T0EE8 005:039.388   Data:  FE E7 0A E0
T0EE8 005:039.403 - 0.871ms returns 4 (0x4)
T0EE8 005:039.590 JLINK_ReadMemEx(0x20000000, 0x4 Bytes, Flags = 0x02000000)
T0EE8 005:039.625    -- Read from C cache (4 bytes @ 0x20000000)
T0EE8 005:039.641   Data:  FE E7 0A E0
T0EE8 005:039.655 - 0.070ms returns 4 (0x4)
T0EE8 005:039.708 JLINK_ReadMemEx(0x20000000, 0x4 Bytes, Flags = 0x02000000)
T0EE8 005:039.725    -- Read from C cache (4 bytes @ 0x20000000)
T0EE8 005:039.770   Data:  FE E7 0A E0
T0EE8 005:039.786 - 0.083ms returns 4 (0x4)
T0EE8 005:040.798 JLINK_ReadMemEx(0x20000004, 0x1 Bytes, Flags = 0x02000000)
T0EE8 005:040.822    -- Read from C cache (1 bytes @ 0x20000004)
T0EE8 005:040.832   Data:  0D
T0EE8 005:040.841 - 0.046ms returns 1 (0x1)
T0EE8 005:040.866 JLINK_ReadMemEx(0x20000004, 0x1 Bytes, Flags = 0x02000000)
T0EE8 005:040.876    -- Read from C cache (1 bytes @ 0x20000004)
T0EE8 005:040.885   Data:  0D
T0EE8 005:040.894 - 0.031ms returns 1 (0x1)
T0EE8 005:040.921 JLINK_ReadMemEx(0x20000004, 0x1 Bytes, Flags = 0x02000000)
T0EE8 005:040.930    -- Read from C cache (1 bytes @ 0x20000004)
T0EE8 005:040.939   Data:  0D
T0EE8 005:040.948 - 0.030ms returns 1 (0x1)
T0EE8 005:046.735 JLINK_ReadMemEx(0x2000005B, 0x1 Bytes, Flags = 0x02000000)
T0EE8 005:046.819   CPU_ReadMem(64 bytes @ 0x20000040)
T0EE8 005:047.704    -- Updating C cache (64 bytes @ 0x20000040)
T0EE8 005:047.735    -- Read from C cache (1 bytes @ 0x2000005B)
T0EE8 005:047.750   Data:  00
T0EE8 005:047.765 - 1.041ms returns 1 (0x1)
T0EE8 005:047.827 JLINK_ReadMemEx(0x2000005B, 0x1 Bytes, Flags = 0x02000000)
T0EE8 005:047.847    -- Read from C cache (1 bytes @ 0x2000005B)
T0EE8 005:047.861   Data:  00
T0EE8 005:047.876 - 0.055ms returns 1 (0x1)
T0EE8 005:047.916 JLINK_ReadMemEx(0x2000005B, 0x1 Bytes, Flags = 0x02000000)
T0EE8 005:047.930    -- Read from C cache (1 bytes @ 0x2000005B)
T0EE8 005:047.945   Data:  00
T0EE8 005:047.959 - 0.048ms returns 1 (0x1)
T0348 005:120.470 JLINK_ReadMemEx(0x08000324, 0x2 Bytes, Flags = 0x02000000)
T0348 005:120.598    -- Read from C cache (2 bytes @ 0x08000324)
T0348 005:120.622   Data:  09 48
T0348 005:120.638 - 0.175ms returns 2 (0x2)
T0348 005:120.671 JLINK_HasError()
T0348 005:120.701 JLINK_SetBPEx(Addr = 0x0800FCD0, Type = 0xFFFFFFF2)
T0348 005:120.722 - 0.025ms returns 0x00000001
T0348 005:120.734 JLINK_HasError()
T0348 005:120.744 JLINK_SetBPEx(Addr = 0x0800CF4E, Type = 0xFFFFFFF2)
T0348 005:120.756 - 0.016ms returns 0x00000002
T0348 005:120.767 JLINK_HasError()
T0348 005:120.816 JLINK_HasError()
T0348 005:120.830 JLINK_Go()
T0348 005:120.924   CPU_WriteMem(4 bytes @ 0xE0002000)
T0348 005:121.663   CPU_WriteMem(4 bytes @ 0xE0002000)
T0348 005:122.518   CPU_ReadMem(4 bytes @ 0xE0001000)
T0348 005:123.122   CPU_WriteMem(4 bytes @ 0xE0002008)
T0348 005:123.222   CPU_WriteMem(4 bytes @ 0xE000200C)
T0348 005:123.239   CPU_WriteMem(4 bytes @ 0xE0002010)
T0348 005:123.253   CPU_WriteMem(4 bytes @ 0xE0002014)
T0348 005:123.299   CPU_WriteMem(4 bytes @ 0xE0002018)
T0348 005:123.345   CPU_WriteMem(4 bytes @ 0xE000201C)
T0348 005:124.798   CPU_WriteMem(4 bytes @ 0xE0001004)
T0348 005:126.183 - 5.370ms
T0348 005:226.759 JLINK_HasError()
T0348 005:226.796 JLINK_IsHalted()
T0348 005:228.903 - 2.133ms returns TRUE
T0348 005:228.962 JLINK_HasError()
T0348 005:229.011 JLINK_Halt()
T0348 005:229.031 - 0.025ms returns 0x00
T0348 005:229.058 JLINK_IsHalted()
T0348 005:229.078 - 0.022ms returns TRUE
T0348 005:229.088 JLINK_IsHalted()
T0348 005:229.094 - 0.009ms returns TRUE
T0348 005:229.101 JLINK_IsHalted()
T0348 005:229.107 - 0.008ms returns TRUE
T0348 005:229.115 JLINK_HasError()
T0348 005:229.123 JLINK_ReadReg(R15 (PC))
T0348 005:229.134 - 0.013ms returns 0x0800FCD0
T0348 005:229.141 JLINK_ReadReg(XPSR)
T0348 005:229.148 - 0.009ms returns 0x61000000
T0348 005:229.164 JLINK_HasError()
T0348 005:229.174 JLINK_ClrBPEx(BPHandle = 0x00000001)
T0348 005:229.281 - 0.116ms returns 0x00
T0348 005:229.300 JLINK_HasError()
T0348 005:229.308 JLINK_ClrBPEx(BPHandle = 0x00000002)
T0348 005:229.315 - 0.009ms returns 0x00
T0348 005:229.322 JLINK_HasError()
T0348 005:229.329 JLINK_HasError()
T0348 005:229.336 JLINK_ReadMemU32(0xE000ED30, 0x1 Items)
T0348 005:229.350   CPU_ReadMem(4 bytes @ 0xE000ED30)
T0348 005:229.784   Data:  02 00 00 00
T0348 005:229.851 - 0.530ms returns 1 (0x1)
T0348 005:229.918 JLINK_ReadMemU32(0xE0001028, 0x1 Items)
T0348 005:229.976   CPU_ReadMem(4 bytes @ 0xE0001028)
T0348 005:230.415   Data:  00 00 00 00
T0348 005:230.450   Debug reg: DWT_FUNC[0]
T0348 005:230.464 - 0.551ms returns 1 (0x1)
T0348 005:230.480 JLINK_ReadMemU32(0xE0001038, 0x1 Items)
T0348 005:230.501   CPU_ReadMem(4 bytes @ 0xE0001038)
T0348 005:230.921   Data:  00 02 00 00
T0348 005:230.950   Debug reg: DWT_FUNC[1]
T0348 005:230.962 - 0.486ms returns 1 (0x1)
T0348 005:230.978 JLINK_ReadMemU32(0xE0001048, 0x1 Items)
T0348 005:231.000   CPU_ReadMem(4 bytes @ 0xE0001048)
T0348 005:235.319   Data:  00 00 00 00
T0348 005:235.371   Debug reg: DWT_FUNC[2]
T0348 005:235.384 - 4.410ms returns 1 (0x1)
T0348 005:235.404 JLINK_ReadMemU32(0xE0001058, 0x1 Items)
T0348 005:235.659   CPU_ReadMem(4 bytes @ 0xE0001058)
T0348 005:236.339   Data:  00 00 00 00
T0348 005:236.371   Debug reg: DWT_FUNC[3]
T0348 005:236.379 - 0.978ms returns 1 (0x1)
T0348 005:236.546 JLINK_HasError()
T0348 005:236.578 JLINK_ReadReg(R0)
T0348 005:236.650 - 0.077ms returns 0x20001E28
T0348 005:236.665 JLINK_ReadReg(R1)
T0348 005:236.675 - 0.014ms returns 0x20002028
T0348 005:236.686 JLINK_ReadReg(R2)
T0348 005:236.705 - 0.023ms returns 0x20002028
T0348 005:236.715 JLINK_ReadReg(R3)
T0348 005:236.724 - 0.013ms returns 0x20002028
T0348 005:236.734 JLINK_ReadReg(R4)
T0348 005:236.744 - 0.014ms returns 0x00000000
T0348 005:236.754 JLINK_ReadReg(R5)
T0348 005:236.763 - 0.014ms returns 0x20001DC4
T0348 005:236.774 JLINK_ReadReg(R6)
T0348 005:236.784 - 0.014ms returns 0x00000000
T0348 005:236.794 JLINK_ReadReg(R7)
T0348 005:236.804 - 0.016ms returns 0x00000000
T0348 005:236.816 JLINK_ReadReg(R8)
T0348 005:236.826 - 0.014ms returns 0x00000000
T0348 005:236.836 JLINK_ReadReg(R9)
T0348 005:236.850 - 0.018ms returns 0x00000000
T0348 005:236.861 JLINK_ReadReg(R10)
T0348 005:236.870 - 0.013ms returns 0x0800FFB8
T0348 005:236.880 JLINK_ReadReg(R11)
T0348 005:236.890 - 0.015ms returns 0x00000000
T0348 005:236.902 JLINK_ReadReg(R12)
T0348 005:236.911 - 0.014ms returns 0x20001E04
T0348 005:236.921 JLINK_ReadReg(R13 (SP))
T0348 005:236.931 - 0.014ms returns 0x20002428
T0348 005:236.942 JLINK_ReadReg(R14)
T0348 005:236.952 - 0.014ms returns 0x08005313
T0348 005:236.962 JLINK_ReadReg(R15 (PC))
T0348 005:236.972 - 0.014ms returns 0x0800FCD0
T0348 005:236.982 JLINK_ReadReg(XPSR)
T0348 005:236.992 - 0.014ms returns 0x61000000
T0348 005:237.002 JLINK_ReadReg(MSP)
T0348 005:237.011 - 0.013ms returns 0x20002428
T0348 005:237.021 JLINK_ReadReg(PSP)
T0348 005:237.030 - 0.013ms returns 0x00000000
T0348 005:237.040 JLINK_ReadReg(CFBP)
T0348 005:237.050 - 0.014ms returns 0x04000000
T0348 005:237.060 JLINK_ReadReg(FPSCR)
T0348 005:240.085 - 3.053ms returns 0x03000000
T0348 005:240.125 JLINK_ReadReg(FPS0)
T0348 005:240.136 - 0.014ms returns 0x00000000
T0348 005:240.143 JLINK_ReadReg(FPS1)
T0348 005:240.150 - 0.009ms returns 0x00000000
T0348 005:240.157 JLINK_ReadReg(FPS2)
T0348 005:240.163 - 0.009ms returns 0x00000000
T0348 005:240.172 JLINK_ReadReg(FPS3)
T0348 005:240.182 - 0.014ms returns 0x00000000
T0348 005:240.192 JLINK_ReadReg(FPS4)
T0348 005:240.202 - 0.013ms returns 0x00000000
T0348 005:240.212 JLINK_ReadReg(FPS5)
T0348 005:240.223 - 0.015ms returns 0x00000000
T0348 005:240.233 JLINK_ReadReg(FPS6)
T0348 005:240.242 - 0.013ms returns 0x00000000
T0348 005:240.253 JLINK_ReadReg(FPS7)
T0348 005:240.262 - 0.013ms returns 0x00000000
T0348 005:240.272 JLINK_ReadReg(FPS8)
T0348 005:240.282 - 0.014ms returns 0x00000000
T0348 005:240.293 JLINK_ReadReg(FPS9)
T0348 005:240.303 - 0.014ms returns 0x00000000
T0348 005:240.313 JLINK_ReadReg(FPS10)
T0348 005:240.322 - 0.013ms returns 0x00000000
T0348 005:240.332 JLINK_ReadReg(FPS11)
T0348 005:240.341 - 0.013ms returns 0x00000000
T0348 005:240.352 JLINK_ReadReg(FPS12)
T0348 005:240.361 - 0.012ms returns 0x00000000
T0348 005:240.369 JLINK_ReadReg(FPS13)
T0348 005:240.378 - 0.013ms returns 0x00000000
T0348 005:240.388 JLINK_ReadReg(FPS14)
T0348 005:240.397 - 0.013ms returns 0x00000000
T0348 005:240.407 JLINK_ReadReg(FPS15)
T0348 005:240.416 - 0.013ms returns 0x00000000
T0348 005:240.427 JLINK_ReadReg(FPS16)
T0348 005:240.436 - 0.012ms returns 0x00000000
T0348 005:240.444 JLINK_ReadReg(FPS17)
T0348 005:240.454 - 0.013ms returns 0x00000000
T0348 005:240.463 JLINK_ReadReg(FPS18)
T0348 005:240.473 - 0.014ms returns 0x00000000
T0348 005:240.483 JLINK_ReadReg(FPS19)
T0348 005:240.492 - 0.013ms returns 0x00000000
T0348 005:240.503 JLINK_ReadReg(FPS20)
T0348 005:240.511 - 0.011ms returns 0x00000000
T0348 005:240.518 JLINK_ReadReg(FPS21)
T0348 005:240.525 - 0.009ms returns 0x00000000
T0348 005:240.532 JLINK_ReadReg(FPS22)
T0348 005:240.538 - 0.009ms returns 0x00000000
T0348 005:240.545 JLINK_ReadReg(FPS23)
T0348 005:240.551 - 0.009ms returns 0x00000000
T0348 005:240.558 JLINK_ReadReg(FPS24)
T0348 005:240.564 - 0.008ms returns 0x00000000
T0348 005:240.571 JLINK_ReadReg(FPS25)
T0348 005:240.577 - 0.009ms returns 0x00000000
T0348 005:240.586 JLINK_ReadReg(FPS26)
T0348 005:240.596 - 0.013ms returns 0x00000000
T0348 005:240.606 JLINK_ReadReg(FPS27)
T0348 005:240.642 - 0.042ms returns 0x00000000
T0348 005:240.656 JLINK_ReadReg(FPS28)
T0348 005:240.675 - 0.043ms returns 0x00000000
T0348 005:240.710 JLINK_ReadReg(FPS29)
T0348 005:240.786 - 0.082ms returns 0x00000000
T0348 005:240.803 JLINK_ReadReg(FPS30)
T0348 005:240.814 - 0.014ms returns 0x00000000
T0348 005:240.825 JLINK_ReadReg(FPS31)
T0348 005:240.861 - 0.042ms returns 0x00000000
T0EE8 005:256.550 JLINK_ReadMemEx(0x20000000, 0x4 Bytes, Flags = 0x02000000)
T0EE8 005:256.628   CPU_ReadMem(64 bytes @ 0x20000000)
T0EE8 005:257.501    -- Updating C cache (64 bytes @ 0x20000000)
T0EE8 005:257.532    -- Read from C cache (4 bytes @ 0x20000000)
T0EE8 005:257.542   Data:  00 00 00 00
T0EE8 005:257.550 - 1.003ms returns 4 (0x4)
T0EE8 005:258.189 JLINK_ReadMemEx(0x20000004, 0x1 Bytes, Flags = 0x02000000)
T0EE8 005:258.221    -- Read from C cache (1 bytes @ 0x20000004)
T0EE8 005:258.235   Data:  00
T0EE8 005:258.248 - 0.063ms returns 1 (0x1)
T0EE8 005:260.547 JLINK_ReadMemEx(0x2000005B, 0x1 Bytes, Flags = 0x02000000)
T0EE8 005:260.599   CPU_ReadMem(64 bytes @ 0x20000040)
T0EE8 005:261.248    -- Updating C cache (64 bytes @ 0x20000040)
T0EE8 005:261.269    -- Read from C cache (1 bytes @ 0x2000005B)
T0EE8 005:261.278   Data:  00
T0EE8 005:261.286 - 0.742ms returns 1 (0x1)
T0EE8 005:261.372 JLINK_ReadMemEx(0x40013800, 0x14 Bytes, Flags = 0x02000004)
T0EE8 005:261.390   CPU_ReadMem(20 bytes @ 0x40013800)
T0EE8 005:262.062   Data:  00 00 00 00 00 00 00 00 00 00 00 00 00 00 00 00 ...
T0EE8 005:262.091 - 0.723ms returns 20 (0x14)
T0EE8 005:262.139 JLINK_ReadMemEx(0x40013814, 0x4 Bytes, Flags = 0x02000004)
T0EE8 005:262.171   CPU_ReadMem(4 bytes @ 0x40013814)
T0EE8 005:262.575   Data:  00 00 00 00
T0EE8 005:262.598 - 0.464ms returns 4 (0x4)
T0EE8 005:262.832 JLINK_ReadMemEx(0x4001381C, 0x4 Bytes, Flags = 0x02000004)
T0EE8 005:262.862   CPU_ReadMem(4 bytes @ 0x4001381C)
T0EE8 005:263.391   Data:  C0 00 00 00
T0EE8 005:263.410 - 0.582ms returns 4 (0x4)
T0EE8 005:263.427 JLINK_ReadMemEx(0x40013824, 0x8 Bytes, Flags = 0x02000004)
T0EE8 005:263.466   CPU_ReadMem(8 bytes @ 0x40013824)
T0EE8 005:263.853   Data:  00 00 00 00 00 00 00 00
T0EE8 005:263.877 - 0.455ms returns 8 (0x8)
T0EE8 005:263.895 JLINK_ReadMemEx(0x4001382C, 0x4 Bytes, Flags = 0x02000004)
T0EE8 005:263.914   CPU_ReadMem(4 bytes @ 0x4001382C)
T0EE8 005:264.379   Data:  00 00 00 00
T0EE8 005:264.399 - 0.507ms returns 4 (0x4)
T0EE8 005:264.892 JLINK_ReadMemEx(0x40004800, 0x14 Bytes, Flags = 0x02000004)
T0EE8 005:264.912   CPU_ReadMem(20 bytes @ 0x40004800)
T0EE8 005:265.390   Data:  00 00 00 00 00 00 00 00 00 00 00 00 00 00 00 00 ...
T0EE8 005:265.410 - 0.522ms returns 20 (0x14)
T0EE8 005:265.427 JLINK_ReadMemEx(0x40004814, 0x4 Bytes, Flags = 0x02000004)
T0EE8 005:265.445   CPU_ReadMem(4 bytes @ 0x40004814)
T0EE8 005:265.782   Data:  00 00 00 00
T0EE8 005:265.810 - 0.388ms returns 4 (0x4)
T0EE8 005:265.830 JLINK_ReadMemEx(0x4000481C, 0x4 Bytes, Flags = 0x02000004)
T0EE8 005:265.851   CPU_ReadMem(4 bytes @ 0x4000481C)
T0EE8 005:266.256   Data:  C0 00 00 00
T0EE8 005:266.280 - 0.456ms returns 4 (0x4)
T0EE8 005:266.299 JLINK_ReadMemEx(0x40004824, 0x8 Bytes, Flags = 0x02000004)
T0EE8 005:266.319   CPU_ReadMem(8 bytes @ 0x40004824)
T0EE8 005:266.766   Data:  00 00 00 00 00 00 00 00
T0EE8 005:266.790 - 0.496ms returns 8 (0x8)
T0EE8 005:266.809 JLINK_ReadMemEx(0x4000482C, 0x4 Bytes, Flags = 0x02000004)
T0EE8 005:266.829   CPU_ReadMem(4 bytes @ 0x4000482C)
T0EE8 005:267.218   Data:  00 00 00 00
T0EE8 005:267.244 - 0.441ms returns 4 (0x4)
T0EE8 005:268.008 JLINK_ReadMemEx(0x40020000, 0x4 Bytes, Flags = 0x02000004)
T0EE8 005:268.039   CPU_ReadMem(4 bytes @ 0x40020000)
T0EE8 005:268.436   Data:  00 00 00 00
T0EE8 005:268.464 - 0.461ms returns 4 (0x4)
T0EE8 005:268.483 JLINK_ReadMemEx(0x40020008, 0x4 Bytes, Flags = 0x02000004)
T0EE8 005:268.498   CPU_ReadMem(4 bytes @ 0x40020008)
T0EE8 005:269.068   Data:  00 00 00 00
T0EE8 005:269.120 - 0.643ms returns 4 (0x4)
T0EE8 005:269.139 JLINK_ReadMemEx(0x4002000C, 0x4 Bytes, Flags = 0x02000004)
T0EE8 005:269.190   CPU_ReadMem(4 bytes @ 0x4002000C)
T0EE8 005:269.610   Data:  00 00 00 00
T0EE8 005:269.638 - 0.503ms returns 4 (0x4)
T0EE8 005:269.657 JLINK_ReadMemEx(0x40020010, 0x4 Bytes, Flags = 0x02000004)
T0EE8 005:269.678   CPU_ReadMem(4 bytes @ 0x40020010)
T0EE8 005:270.096   Data:  00 00 00 00
T0EE8 005:270.116 - 0.462ms returns 4 (0x4)
T0EE8 005:270.130 JLINK_ReadMemEx(0x40020014, 0x4 Bytes, Flags = 0x02000004)
T0EE8 005:270.143   CPU_ReadMem(4 bytes @ 0x40020014)
T0EE8 005:270.529   Data:  00 00 00 00
T0EE8 005:270.628 - 0.502ms returns 4 (0x4)
T0EE8 005:270.643 JLINK_ReadMemEx(0x4002001C, 0x4 Bytes, Flags = 0x02000004)
T0EE8 005:270.658   CPU_ReadMem(4 bytes @ 0x4002001C)
T0EE8 005:271.041   Data:  00 00 00 00
T0EE8 005:271.068 - 0.430ms returns 4 (0x4)
T0EE8 005:271.087 JLINK_ReadMemEx(0x40020020, 0x4 Bytes, Flags = 0x02000004)
T0EE8 005:271.108   CPU_ReadMem(4 bytes @ 0x40020020)
T0EE8 005:271.648   Data:  00 00 00 00
T0EE8 005:271.675 - 0.592ms returns 4 (0x4)
T0EE8 005:271.693 JLINK_ReadMemEx(0x40020024, 0x4 Bytes, Flags = 0x02000004)
T0EE8 005:271.715   CPU_ReadMem(4 bytes @ 0x40020024)
T0EE8 005:272.156   Data:  00 00 00 00
T0EE8 005:272.182 - 0.492ms returns 4 (0x4)
T0EE8 005:272.246 JLINK_ReadMemEx(0x40020028, 0x4 Bytes, Flags = 0x02000004)
T0EE8 005:272.271   CPU_ReadMem(4 bytes @ 0x40020028)
T0EE8 005:272.707   Data:  00 00 00 00
T0EE8 005:272.734 - 0.493ms returns 4 (0x4)
T0EE8 005:272.752 JLINK_ReadMemEx(0x40020030, 0x4 Bytes, Flags = 0x02000004)
T0EE8 005:272.772   CPU_ReadMem(4 bytes @ 0x40020030)
T0EE8 005:273.227   Data:  00 00 00 00
T0EE8 005:273.250 - 0.501ms returns 4 (0x4)
T0EE8 005:273.269 JLINK_ReadMemEx(0x40020034, 0x4 Bytes, Flags = 0x02000004)
T0EE8 005:273.287   CPU_ReadMem(4 bytes @ 0x40020034)
T0EE8 005:273.657   Data:  00 00 00 00
